             * c:\users\91809\esim-workspace\4bit_dac\4bit_dac.cir
             Transient Analysis  Wed Feb 17 11:08:03  2021
--------------------------------------------------------------------------------
Index   time            vd0#branch      vd1#branch      vd2#branch      
--------------------------------------------------------------------------------
0	0.000000e+00	0.000000e+00	0.000000e+00	0.000000e+00	
1	1.000000e-14	-2.49194e-02	-1.24207e-02	-6.20645e-03	
2	2.000000e-14	-2.59856e-02	-1.29623e-02	-6.47696e-03	
3	4.000000e-14	-2.67961e-02	-1.33679e-02	-6.67872e-03	
4	8.000000e-14	-2.62166e-02	-1.30544e-02	-6.51912e-03	
5	1.600000e-13	-2.67914e-02	-1.33520e-02	-6.67012e-03	
6	3.200000e-13	-2.70533e-02	-1.34558e-02	-6.71868e-03	
7	6.400000e-13	-2.76113e-02	-1.37472e-02	-6.86744e-03	
8	1.000000e-12	-2.72143e-02	-1.35295e-02	-6.75581e-03	
9	1.064000e-12	-1.31138e-03	-6.28088e-04	-3.11176e-04	
10	1.192000e-12	-9.22672e-05	-7.37218e-06	9.819379e-07	
11	1.448000e-12	-9.94920e-04	-4.85575e-04	-2.39695e-04	
12	1.960000e-12	-1.12858e-04	-4.46721e-05	-1.89417e-05	
13	2.984000e-12	-8.46107e-04	-4.35825e-04	-2.16799e-04	
14	5.032000e-12	9.721574e-06	-5.07273e-06	-2.93349e-06	
15	9.128000e-12	-6.69043e-04	-3.52339e-04	-1.78918e-04	
16	1.732000e-11	2.271606e-04	1.208501e-04	5.975637e-05	
17	3.370400e-11	-4.42475e-04	-2.28570e-04	-1.14228e-04	
18	6.647200e-11	2.942087e-04	1.532703e-04	7.630890e-05	
19	1.158544e-10	-4.18096e-04	-2.12316e-04	-1.04397e-04	
20	1.910596e-10	3.659057e-04	1.875074e-04	9.234785e-05	
21	2.740428e-10	-3.68997e-04	-1.90659e-04	-9.44737e-05	
22	3.735341e-10	3.676313e-04	1.904851e-04	9.426524e-05	
23	5.083023e-10	-3.66645e-04	-1.90280e-04	-9.41654e-05	
24	7.105593e-10	3.660570e-04	1.900795e-04	9.402955e-05	
25	1.115073e-09	-3.65798e-04	-1.89994e-04	-9.39841e-05	
26	1.842660e-09	3.656613e-04	1.899448e-04	9.395672e-05	
27	3.265233e-09	-3.65593e-04	-1.89920e-04	-9.39429e-05	
28	6.110379e-09	3.655601e-04	1.899075e-04	9.393601e-05	
29	1.180067e-08	-3.65544e-04	-1.89901e-04	-9.39326e-05	
30	2.318126e-08	3.655353e-04	1.898982e-04	9.393089e-05	
31	4.594242e-08	-3.65531e-04	-1.89897e-04	-9.39300e-05	
32	9.146476e-08	3.655291e-04	1.898959e-04	9.392961e-05	
33	1.825094e-07	-3.65528e-04	-1.89896e-04	-9.39294e-05	
34	3.645988e-07	3.655276e-04	1.898953e-04	9.392929e-05	
35	7.287775e-07	-3.65527e-04	-1.89895e-04	-9.39292e-05	
36	1.228777e-06	3.655271e-04	1.898952e-04	9.392920e-05	
37	1.728777e-06	-3.65527e-04	-1.89895e-04	-9.39292e-05	
38	2.228777e-06	3.655268e-04	1.898950e-04	9.392912e-05	
39	2.728777e-06	-3.65527e-04	-1.89895e-04	-9.39291e-05	
40	3.228777e-06	3.655264e-04	1.898949e-04	9.392904e-05	
41	3.728777e-06	-3.65526e-04	-1.89895e-04	-9.39290e-05	
42	4.228777e-06	3.655260e-04	1.898947e-04	9.392897e-05	
43	4.728777e-06	-3.65526e-04	-1.89895e-04	-9.39289e-05	
44	5.000001e-06	3.655255e-04	1.898945e-04	9.392886e-05	
45	5.000001e-06	2.711531e-02	-1.28326e-04	-3.59999e-06	
46	5.000001e-06	2.757712e-02	-1.08743e-04	-5.79470e-06	
47	5.000002e-06	2.734766e-02	-1.09536e-04	-6.71772e-06	
48	5.000002e-06	2.682419e-02	-8.32067e-05	-7.41111e-06	
49	5.000002e-06	6.446163e-04	4.671303e-05	-3.46740e-07	
50	5.000002e-06	3.986221e-04	1.993766e-05	-3.29312e-06	
51	5.000003e-06	5.434881e-04	4.239436e-05	5.338740e-07	
52	5.000003e-06	3.150444e-04	1.748443e-05	-1.51531e-06	
53	5.000004e-06	4.140038e-04	3.620452e-05	2.543772e-06	
54	5.000007e-06	1.270542e-04	4.972002e-06	7.066638e-07	

Index   time            vd0#branch      vd1#branch      vd2#branch      
--------------------------------------------------------------------------------
55	5.000012e-06	1.957766e-04	1.606666e-05	3.452459e-06	
56	5.000022e-06	1.177504e-05	-1.52863e-05	-1.32527e-06	
57	5.000043e-06	1.607272e-04	1.021453e-05	1.009088e-06	
58	5.000084e-06	5.235809e-06	-1.49622e-05	-2.47920e-06	
59	5.000136e-06	1.595050e-04	1.827567e-05	2.729046e-06	
60	5.000183e-06	-1.05377e-04	-1.82778e-05	-2.22619e-06	
61	5.000250e-06	1.018749e-04	1.766272e-05	2.043359e-06	
62	5.000323e-06	-9.59499e-05	-1.68042e-05	-1.84851e-06	
63	5.000466e-06	9.335576e-05	1.642825e-05	1.804647e-06	
64	5.000684e-06	-9.17631e-05	-1.61773e-05	-1.76704e-06	
65	5.001065e-06	9.089422e-05	1.603917e-05	1.750550e-06	
66	5.001785e-06	-9.04478e-05	-1.59672e-05	-1.74189e-06	
67	5.003004e-06	9.018780e-05	1.592495e-05	1.736915e-06	
68	5.005315e-06	-9.00519e-05	-1.59028e-05	-1.73433e-06	
69	5.009445e-06	8.997613e-05	1.589048e-05	1.732901e-06	
70	5.017705e-06	-8.99384e-05	-1.58843e-05	-1.73219e-06	
71	5.034224e-06	8.991949e-05	1.588123e-05	1.731833e-06	
72	5.067262e-06	-8.99101e-05	-1.58797e-05	-1.73166e-06	
73	5.133338e-06	8.990535e-05	1.587892e-05	1.731566e-06	
74	5.265489e-06	-8.99030e-05	-1.58785e-05	-1.73152e-06	
75	5.529793e-06	8.990182e-05	1.587834e-05	1.731500e-06	
76	6.029793e-06	-8.99012e-05	-1.58782e-05	-1.73149e-06	
77	6.529793e-06	8.990057e-05	1.587814e-05	1.731477e-06	
78	7.029793e-06	-8.98999e-05	-1.58780e-05	-1.73146e-06	
79	7.529793e-06	8.989933e-05	1.587794e-05	1.731453e-06	
80	8.029793e-06	-8.98987e-05	-1.58778e-05	-1.73144e-06	
81	8.529793e-06	8.989808e-05	1.587773e-05	1.731430e-06	
82	9.029793e-06	-8.98975e-05	-1.58776e-05	-1.73142e-06	
83	9.529793e-06	8.989684e-05	1.587753e-05	1.731406e-06	
84	1.000000e-05	-8.98962e-05	-1.58774e-05	-1.73139e-06	
85	1.000000e-05	-2.64694e-02	1.373838e-04	6.952689e-06	
86	1.000000e-05	-2.75844e-02	1.175820e-04	4.792964e-06	
87	1.000000e-05	-2.74837e-02	9.358522e-05	7.224598e-06	
88	1.000000e-05	-2.75535e-02	6.599710e-05	4.820578e-06	
89	1.000000e-05	-1.32741e-03	1.358957e-02	-6.02453e-05	
90	1.000000e-05	-3.14908e-04	1.389379e-02	-4.47749e-05	
91	1.000000e-05	-1.07307e-03	1.370919e-02	-5.36988e-05	
92	1.000000e-05	-2.97009e-04	1.363793e-02	-3.64225e-05	
93	1.000000e-05	-3.60489e-04	2.050653e-04	2.294323e-05	
94	1.000000e-05	-5.06374e-04	1.053303e-04	8.346850e-06	
95	1.000000e-05	-3.59013e-04	1.898340e-04	2.055587e-05	
96	1.000000e-05	-4.54647e-04	1.008790e-04	6.291246e-06	
97	1.000000e-05	-2.97319e-04	1.701934e-04	1.635459e-05	
98	1.000001e-05	-3.61394e-04	7.030121e-05	-2.85338e-07	
99	1.000001e-05	-1.96736e-04	1.115352e-04	9.125981e-06	
100	1.000002e-05	-2.09344e-04	2.616201e-06	-7.66377e-06	
101	1.000003e-05	-1.07892e-06	8.853950e-05	5.543754e-06	
102	1.000007e-05	-1.48719e-04	-1.00422e-05	-7.82723e-06	
103	1.000012e-05	2.935868e-05	1.014324e-04	8.369286e-06	
104	1.000018e-05	-8.18327e-05	-6.25224e-05	-7.20277e-06	
105	1.000025e-05	7.030229e-05	6.102459e-05	6.539715e-06	
106	1.000034e-05	-7.05592e-05	-5.97626e-05	-6.27217e-06	
107	1.000045e-05	7.097549e-05	5.923305e-05	6.207168e-06	
108	1.000061e-05	-7.11951e-05	-5.89109e-05	-6.16738e-06	
109	1.000094e-05	7.128334e-05	5.877023e-05	6.155187e-06	
110	1.000158e-05	-7.13220e-05	-5.87028e-05	-6.14919e-06	
111	1.000283e-05	7.134093e-05	5.866844e-05	6.146228e-06	
112	1.000531e-05	-7.13501e-05	-5.86515e-05	-6.14479e-06	

Index   time            vd0#branch      vd1#branch      vd2#branch      
--------------------------------------------------------------------------------
113	1.001028e-05	7.135456e-05	5.864307e-05	6.144079e-06	
114	1.002021e-05	-7.13568e-05	-5.86389e-05	-6.14373e-06	
115	1.004007e-05	7.135789e-05	5.863678e-05	6.143551e-06	
116	1.007980e-05	-7.13584e-05	-5.86357e-05	-6.14346e-06	
117	1.015925e-05	7.135872e-05	5.863520e-05	6.143419e-06	
118	1.031816e-05	-7.13589e-05	-5.86349e-05	-6.14340e-06	
119	1.063599e-05	7.135893e-05	5.863481e-05	6.143386e-06	
120	1.113599e-05	-7.13590e-05	-5.86347e-05	-6.14338e-06	
121	1.163599e-05	7.135902e-05	5.863465e-05	6.143372e-06	
122	1.213599e-05	-7.13591e-05	-5.86346e-05	-6.14337e-06	
123	1.263599e-05	7.135910e-05	5.863448e-05	6.143358e-06	
124	1.313599e-05	-7.13591e-05	-5.86344e-05	-6.14335e-06	
125	1.363599e-05	7.135919e-05	5.863431e-05	6.143344e-06	
126	1.413599e-05	-7.13592e-05	-5.86342e-05	-6.14334e-06	
127	1.463599e-05	7.135928e-05	5.863415e-05	6.143331e-06	
128	1.500000e-05	-7.13593e-05	-5.86340e-05	-6.14332e-06	
129	1.500000e-05	2.710239e-02	-1.91671e-04	-8.40812e-06	
130	1.500000e-05	2.758480e-02	-1.56431e-04	-7.18514e-06	
131	1.500000e-05	2.733746e-02	-1.72007e-04	-1.02421e-05	
132	1.500000e-05	2.683653e-02	-1.21171e-04	-7.91161e-06	
133	1.500000e-05	6.408393e-04	7.294476e-05	-3.61328e-08	
134	1.500000e-05	3.900749e-04	2.323971e-05	-3.38416e-06	
135	1.500000e-05	5.474055e-04	6.778492e-05	8.748255e-07	
136	1.500000e-05	3.140896e-04	1.947736e-05	-1.67443e-06	
137	1.500000e-05	4.117727e-04	5.454749e-05	3.068797e-06	
138	1.500001e-05	1.256822e-04	-2.83107e-06	2.665748e-07	
139	1.500001e-05	1.954225e-04	2.728350e-05	3.305416e-06	
140	1.500002e-05	1.185180e-05	-2.61390e-05	-1.81133e-06	
141	1.500004e-05	1.609561e-04	1.977342e-05	1.279204e-06	
142	1.500008e-05	4.693416e-06	-2.74336e-05	-2.61578e-06	
143	1.500013e-05	1.624163e-04	3.239184e-05	3.062415e-06	
144	1.500018e-05	-1.03735e-04	-3.13927e-05	-2.70479e-06	
145	1.500025e-05	1.003877e-04	3.028970e-05	2.478607e-06	
146	1.500032e-05	-9.46736e-05	-2.91523e-05	-2.24589e-06	
147	1.500047e-05	9.221356e-05	2.871448e-05	2.185621e-06	
148	1.500069e-05	-9.07078e-05	-2.84237e-05	-2.13701e-06	
149	1.500107e-05	8.988415e-05	2.826437e-05	2.114247e-06	
150	1.500179e-05	-8.94551e-05	-2.81805e-05	-2.10246e-06	
151	1.500301e-05	8.920518e-05	2.813133e-05	2.095660e-06	
152	1.500530e-05	-8.90732e-05	-2.81053e-05	-2.09209e-06	
153	1.500935e-05	8.899928e-05	2.809072e-05	2.090103e-06	
154	1.501672e-05	-8.89586e-05	-2.80827e-05	-2.08901e-06	
155	1.503120e-05	8.893797e-05	2.807861e-05	2.088456e-06	
156	1.506015e-05	-8.89277e-05	-2.80766e-05	-2.08818e-06	
157	1.511806e-05	8.892250e-05	2.807555e-05	2.088041e-06	
158	1.523387e-05	-8.89199e-05	-2.80750e-05	-2.08797e-06	
159	1.546550e-05	8.891863e-05	2.807478e-05	2.087938e-06	
160	1.592876e-05	-8.89180e-05	-2.80747e-05	-2.08792e-06	
161	1.642876e-05	8.891739e-05	2.807454e-05	2.087904e-06	
162	1.692876e-05	-8.89168e-05	-2.80744e-05	-2.08789e-06	
163	1.742876e-05	8.891620e-05	2.807430e-05	2.087872e-06	
164	1.792876e-05	-8.89156e-05	-2.80742e-05	-2.08786e-06	
165	1.842876e-05	8.891500e-05	2.807407e-05	2.087840e-06	
166	1.892876e-05	-8.89144e-05	-2.80739e-05	-2.08782e-06	
167	1.942876e-05	8.891381e-05	2.807383e-05	2.087808e-06	
168	1.992876e-05	-8.89132e-05	-2.80737e-05	-2.08779e-06	
169	2.000000e-05	8.890903e-05	2.807288e-05	2.087680e-06	
170	2.000000e-05	-2.63272e-02	-1.32263e-02	7.441761e-05	

Index   time            vd0#branch      vd1#branch      vd2#branch      
--------------------------------------------------------------------------------
171	2.000000e-05	-2.72035e-02	-1.36389e-02	6.526413e-05	
172	2.000000e-05	-2.74510e-02	-1.37128e-02	5.241875e-05	
173	2.000000e-05	-2.73090e-02	-1.36365e-02	3.813999e-05	
174	2.000000e-05	-1.18759e-03	-6.13684e-04	6.798972e-03	
175	2.000000e-05	-1.57501e-04	-1.10628e-04	6.948549e-03	
176	2.000000e-05	-9.39173e-04	-5.08371e-04	6.855834e-03	
177	2.000000e-05	-1.68717e-04	-1.26097e-04	6.819915e-03	
178	2.000000e-05	-4.59984e-04	-1.72541e-04	1.064696e-04	
179	2.000000e-05	-5.34917e-04	-2.43208e-04	5.686142e-05	
180	2.000000e-05	-4.51538e-04	-1.80896e-04	9.827975e-05	
181	2.000000e-05	-4.82048e-04	-2.29309e-04	5.371376e-05	
182	2.000000e-05	-3.77017e-04	-1.65499e-04	8.676237e-05	
183	2.000001e-05	-3.67700e-04	-1.92999e-04	3.484029e-05	
184	2.000001e-05	-2.34327e-04	-1.10637e-04	5.311693e-05	
185	2.000002e-05	-1.71212e-04	-9.61877e-05	1.048683e-06	
186	2.000003e-05	-3.39233e-05	-7.78353e-06	4.291210e-05	
187	2.000007e-05	-1.13411e-04	-6.78481e-05	-4.63795e-06	
188	2.000012e-05	-6.67155e-06	1.063976e-05	5.241875e-05	
189	2.000018e-05	-4.60899e-05	-3.60407e-05	-3.14461e-05	
190	2.000026e-05	3.663512e-05	2.900357e-05	2.940183e-05	
191	2.000035e-05	-3.67899e-05	-2.83826e-05	-2.90725e-05	
192	2.000047e-05	3.741814e-05	2.843764e-05	2.909334e-05	
193	2.000065e-05	-3.78211e-05	-2.85209e-05	-2.91191e-05	
194	2.000100e-05	3.799968e-05	2.856099e-05	2.912414e-05	
195	2.000168e-05	-3.80867e-05	-2.85815e-05	-2.91261e-05	
196	2.000303e-05	3.812935e-05	2.859174e-05	2.912691e-05	
197	2.000573e-05	-3.81503e-05	-2.85968e-05	-2.91272e-05	
198	2.001111e-05	3.816070e-05	2.859933e-05	2.912739e-05	
199	2.002189e-05	-3.81659e-05	-2.86006e-05	-2.91275e-05	
200	2.004344e-05	3.816846e-05	2.860121e-05	2.912749e-05	
201	2.008654e-05	-3.81697e-05	-2.86015e-05	-2.91275e-05	
202	2.017275e-05	3.817039e-05	2.860168e-05	2.912752e-05	
203	2.034516e-05	-3.81707e-05	-2.86018e-05	-2.91275e-05	
204	2.068998e-05	3.817088e-05	2.860180e-05	2.912753e-05	
205	2.118998e-05	-3.81710e-05	-2.86018e-05	-2.91275e-05	
206	2.168998e-05	3.817110e-05	2.860186e-05	2.912753e-05	
207	2.218998e-05	-3.81712e-05	-2.86019e-05	-2.91275e-05	
208	2.268998e-05	3.817132e-05	2.860191e-05	2.912753e-05	
209	2.318998e-05	-3.81714e-05	-2.86019e-05	-2.91275e-05	
210	2.368998e-05	3.817154e-05	2.860196e-05	2.912753e-05	
211	2.418998e-05	-3.81717e-05	-2.86020e-05	-2.91275e-05	
212	2.468998e-05	3.817176e-05	2.860202e-05	2.912754e-05	
213	2.500000e-05	-3.81719e-05	-2.86021e-05	-2.91275e-05	
214	2.500000e-05	2.710982e-02	-1.31663e-04	-1.04537e-05	
215	2.500000e-05	2.758600e-02	-1.07539e-04	-6.81571e-06	
216	2.500000e-05	2.734179e-02	-1.13465e-04	-1.34854e-05	
217	2.500000e-05	2.683273e-02	-8.19393e-05	-9.16940e-06	
218	2.500000e-05	6.440316e-04	4.595652e-05	-1.48938e-06	
219	2.500000e-05	3.983916e-04	1.908689e-05	-6.09859e-06	
220	2.500000e-05	5.424760e-04	4.180466e-05	2.466518e-09	
221	2.500000e-05	3.137539e-04	1.661866e-05	-3.57896e-06	
222	2.500000e-05	4.133907e-04	3.607777e-05	3.617511e-06	
223	2.500001e-05	1.257045e-04	4.180762e-06	1.422636e-07	
224	2.500001e-05	1.959944e-04	1.612781e-05	5.153302e-06	
225	2.500002e-05	1.122522e-05	-1.53598e-05	-2.23450e-06	
226	2.500004e-05	1.612848e-04	1.051049e-05	1.820081e-06	
227	2.500008e-05	4.750127e-06	-1.54261e-05	-4.23472e-06	
228	2.500014e-05	1.599059e-04	1.874526e-05	4.612951e-06	

Index   time            vd0#branch      vd1#branch      vd2#branch      
--------------------------------------------------------------------------------
229	2.500018e-05	-1.05255e-04	-1.86036e-05	-3.60301e-06	
230	2.500025e-05	1.019110e-04	1.796193e-05	3.281249e-06	
231	2.500032e-05	-9.60568e-05	-1.71321e-05	-2.95274e-06	
232	2.500047e-05	9.350870e-05	1.677140e-05	2.885347e-06	
233	2.500068e-05	-9.19043e-05	-1.65244e-05	-2.82615e-06	
234	2.500105e-05	9.103378e-05	1.638932e-05	2.798308e-06	
235	2.500176e-05	-9.05832e-05	-1.63186e-05	-2.78403e-06	
236	2.500294e-05	9.031989e-05	1.627710e-05	2.775772e-06	
237	2.500520e-05	-9.01830e-05	-1.62554e-05	-2.77150e-06	
238	2.500922e-05	9.010642e-05	1.624332e-05	2.769122e-06	
239	2.501659e-05	-9.00647e-05	-1.62367e-05	-2.76783e-06	
240	2.503133e-05	9.004392e-05	1.623341e-05	2.767183e-06	
241	2.506080e-05	-9.00335e-05	-1.62318e-05	-2.76686e-06	
242	2.511974e-05	9.002832e-05	1.623094e-05	2.766700e-06	
243	2.523762e-05	-9.00257e-05	-1.62305e-05	-2.76662e-06	
244	2.547338e-05	9.002442e-05	1.623032e-05	2.766579e-06	
245	2.594491e-05	-9.00238e-05	-1.62302e-05	-2.76656e-06	
246	2.644491e-05	9.002316e-05	1.623012e-05	2.766540e-06	
247	2.694491e-05	-9.00225e-05	-1.62300e-05	-2.76652e-06	
248	2.744491e-05	9.002193e-05	1.622993e-05	2.766502e-06	
249	2.794491e-05	-9.00213e-05	-1.62298e-05	-2.76648e-06	
250	2.844491e-05	9.002071e-05	1.622973e-05	2.766464e-06	
251	2.894491e-05	-9.00201e-05	-1.62296e-05	-2.76645e-06	
252	2.944491e-05	9.001948e-05	1.622954e-05	2.766426e-06	
253	2.994491e-05	-9.00189e-05	-1.62294e-05	-2.76641e-06	
254	3.000000e-05	9.001331e-05	1.622856e-05	2.766235e-06	
255	3.000000e-05	-2.65593e-02	1.433658e-04	9.454487e-06	
256	3.000000e-05	-2.73569e-02	1.239892e-04	9.331073e-06	
257	3.000000e-05	-2.75807e-02	1.014894e-04	9.300272e-06	
258	3.000000e-05	-2.73873e-02	6.935490e-05	9.291361e-06	
259	3.000000e-05	-1.28265e-03	1.359251e-02	-8.49164e-05	
260	3.000000e-05	-3.10820e-04	1.389204e-02	-6.48444e-05	
261	3.000000e-05	-1.04054e-03	1.370922e-02	-7.76265e-05	
262	3.000000e-05	-2.90362e-04	1.363593e-02	-5.16854e-05	
263	3.000000e-05	-3.44024e-04	2.115861e-04	3.883143e-05	
264	3.000000e-05	-4.88957e-04	1.098781e-04	1.252868e-05	
265	3.000000e-05	-3.41674e-04	1.953726e-04	3.445622e-05	
266	3.000000e-05	-4.36586e-04	1.042741e-04	8.767041e-06	
267	3.000000e-05	-2.84118e-04	1.738333e-04	2.595913e-05	
268	3.000001e-05	-3.55004e-04	7.130653e-05	-2.78177e-06	
269	3.000001e-05	-1.92030e-04	1.126417e-04	1.448748e-05	
270	3.000002e-05	-2.11484e-04	1.877677e-06	-1.29091e-05	
271	3.000003e-05	1.459300e-06	8.976943e-05	9.557428e-06	
272	3.000007e-05	-1.51369e-04	-1.08488e-05	-1.35066e-05	
273	3.000012e-05	3.236705e-05	1.018522e-04	1.462610e-05	
274	3.000018e-05	-8.39019e-05	-6.41757e-05	-1.24830e-05	
275	3.000026e-05	7.316185e-05	6.277634e-05	1.156871e-05	
276	3.000035e-05	-7.25037e-05	-6.14581e-05	-1.12933e-05	
277	3.000047e-05	7.273567e-05	6.096728e-05	1.126731e-05	
278	3.000064e-05	-7.28892e-05	-6.06841e-05	-1.12452e-05	
279	3.000098e-05	7.295376e-05	6.055941e-05	1.123680e-05	
280	3.000166e-05	-7.29825e-05	-6.04998e-05	-1.12323e-05	
281	3.000299e-05	7.299616e-05	6.047014e-05	1.123002e-05	
282	3.000566e-05	-7.30028e-05	-6.04555e-05	-1.12289e-05	
283	3.001101e-05	7.300605e-05	6.044819e-05	1.122827e-05	
284	3.002170e-05	-7.30077e-05	-6.04446e-05	-1.12280e-05	
285	3.004308e-05	7.300847e-05	6.044273e-05	1.122784e-05	
286	3.008584e-05	-7.30089e-05	-6.04418e-05	-1.12278e-05	

Index   time            vd0#branch      vd1#branch      vd2#branch      
--------------------------------------------------------------------------------
287	3.017135e-05	7.300907e-05	6.044137e-05	1.122773e-05	
288	3.034238e-05	-7.30092e-05	-6.04411e-05	-1.12277e-05	
289	3.068444e-05	7.300922e-05	6.044103e-05	1.122770e-05	
290	3.118444e-05	-7.30093e-05	-6.04410e-05	-1.12277e-05	
291	3.168444e-05	7.300929e-05	6.044088e-05	1.122769e-05	
292	3.218444e-05	-7.30093e-05	-6.04408e-05	-1.12277e-05	
293	3.268444e-05	7.300936e-05	6.044072e-05	1.122768e-05	
294	3.318444e-05	-7.30094e-05	-6.04406e-05	-1.12277e-05	
295	3.368444e-05	7.300942e-05	6.044057e-05	1.122766e-05	
296	3.418444e-05	-7.30095e-05	-6.04405e-05	-1.12277e-05	
297	3.468444e-05	7.300949e-05	6.044041e-05	1.122765e-05	
298	3.500000e-05	-7.30095e-05	-6.04403e-05	-1.12276e-05	
299	3.500000e-05	2.710091e-02	-1.95016e-04	-1.30670e-05	
300	3.500000e-05	2.758637e-02	-1.53754e-04	-9.47627e-06	
301	3.500000e-05	2.733633e-02	-1.73878e-04	-1.58421e-05	
302	3.500000e-05	2.683784e-02	-1.18593e-04	-1.11096e-05	
303	3.500000e-05	6.409795e-04	7.393734e-05	1.242710e-07	
304	3.500000e-05	3.900331e-04	2.333517e-05	-5.34697e-06	
305	3.500000e-05	5.473100e-04	6.857641e-05	1.620190e-06	
306	3.500000e-05	3.140119e-04	1.937755e-05	-2.83377e-06	
307	3.500000e-05	4.114374e-04	5.515428e-05	4.898007e-06	
308	3.500001e-05	1.256678e-04	-3.79618e-06	-2.05351e-07	
309	3.500001e-05	1.953032e-04	2.794262e-05	5.378356e-06	
310	3.500002e-05	1.197365e-05	-2.65923e-05	-3.18627e-06	
311	3.500004e-05	1.609868e-04	2.055945e-05	2.315749e-06	
312	3.500008e-05	4.579753e-06	-2.83424e-05	-4.34644e-06	
313	3.500013e-05	1.625647e-04	3.317353e-05	4.854010e-06	
314	3.500018e-05	-1.03865e-04	-3.20302e-05	-4.13185e-06	
315	3.500025e-05	1.004056e-04	3.083122e-05	3.887342e-06	
316	3.500032e-05	-9.46010e-05	-2.96165e-05	-3.59197e-06	
317	3.500047e-05	9.212231e-05	2.916239e-05	3.532780e-06	
318	3.500069e-05	-9.06129e-05	-2.88628e-05	-3.47797e-06	
319	3.500107e-05	8.978204e-05	2.869775e-05	3.451289e-06	
320	3.500179e-05	-8.93492e-05	-2.86111e-05	-3.43754e-06	
321	3.500299e-05	8.909612e-05	2.856028e-05	3.429561e-06	
322	3.500524e-05	-8.89619e-05	-2.85333e-05	-3.42535e-06	
323	3.500923e-05	8.888653e-05	2.851805e-05	3.422982e-06	
324	3.501643e-05	-8.88449e-05	-2.85096e-05	-3.42168e-06	
325	3.503073e-05	8.882395e-05	2.850542e-05	3.421023e-06	
326	3.505933e-05	-8.88135e-05	-2.85033e-05	-3.42070e-06	
327	3.511654e-05	8.880826e-05	2.850226e-05	3.420533e-06	
328	3.523095e-05	-8.88057e-05	-2.85017e-05	-3.42045e-06	
329	3.545978e-05	8.880435e-05	2.850147e-05	3.420410e-06	
330	3.591744e-05	-8.88037e-05	-2.85013e-05	-3.42039e-06	
331	3.641744e-05	8.880309e-05	2.850121e-05	3.420371e-06	
