             * c:\users\91809\esim-workspace\2bit_dac\2bit_dac.cir
             Transient Analysis  Wed Feb 17 10:55:51  2021
--------------------------------------------------------------------------------
Index   time            /d0             /d1             /vdd            
--------------------------------------------------------------------------------
0	0.000000e+00	0.000000e+00	0.000000e+00	3.300000e+00	
1	1.000000e-11	1.800000e-02	1.800000e-02	3.300000e+00	
2	2.000000e-11	3.600000e-02	3.600000e-02	3.300000e+00	
3	4.000000e-11	7.200000e-02	7.200000e-02	3.300000e+00	
4	8.000000e-11	1.440000e-01	1.440000e-01	3.300000e+00	
5	1.600000e-10	2.880000e-01	2.880000e-01	3.300000e+00	
6	3.200000e-10	5.760000e-01	5.760000e-01	3.300000e+00	
7	6.400000e-10	1.152000e+00	1.152000e+00	3.300000e+00	
8	1.000000e-09	1.800000e+00	1.800000e+00	3.300000e+00	
9	1.054931e-09	1.800000e+00	1.800000e+00	3.300000e+00	
10	1.164792e-09	1.800000e+00	1.800000e+00	3.300000e+00	
11	1.384516e-09	1.800000e+00	1.800000e+00	3.300000e+00	
12	1.707419e-09	1.800000e+00	1.800000e+00	3.300000e+00	
13	2.135975e-09	1.800000e+00	1.800000e+00	3.300000e+00	
14	2.993088e-09	1.800000e+00	1.800000e+00	3.300000e+00	
15	4.707313e-09	1.800000e+00	1.800000e+00	3.300000e+00	
16	8.135764e-09	1.800000e+00	1.800000e+00	3.300000e+00	
17	1.499267e-08	1.800000e+00	1.800000e+00	3.300000e+00	
18	2.870647e-08	1.800000e+00	1.800000e+00	3.300000e+00	
19	5.613407e-08	1.800000e+00	1.800000e+00	3.300000e+00	
20	1.109893e-07	1.800000e+00	1.800000e+00	3.300000e+00	
21	2.206997e-07	1.800000e+00	1.800000e+00	3.300000e+00	
22	4.401206e-07	1.800000e+00	1.800000e+00	3.300000e+00	
23	8.401206e-07	1.800000e+00	1.800000e+00	3.300000e+00	
24	1.240121e-06	1.800000e+00	1.800000e+00	3.300000e+00	
25	1.640121e-06	1.800000e+00	1.800000e+00	3.300000e+00	
26	2.040121e-06	1.800000e+00	1.800000e+00	3.300000e+00	
27	2.440121e-06	1.800000e+00	1.800000e+00	3.300000e+00	
28	2.840121e-06	1.800000e+00	1.800000e+00	3.300000e+00	
29	3.240121e-06	1.800000e+00	1.800000e+00	3.300000e+00	
30	3.640121e-06	1.800000e+00	1.800000e+00	3.300000e+00	
31	4.040121e-06	1.800000e+00	1.800000e+00	3.300000e+00	
32	4.440121e-06	1.800000e+00	1.800000e+00	3.300000e+00	
33	4.840121e-06	1.800000e+00	1.800000e+00	3.300000e+00	
34	5.001000e-06	1.800000e+00	1.800000e+00	3.300000e+00	
35	5.001100e-06	1.620000e+00	1.800000e+00	3.300000e+00	
36	5.001300e-06	1.260000e+00	1.800000e+00	3.300000e+00	
37	5.001700e-06	5.400000e-01	1.800000e+00	3.300000e+00	
38	5.002000e-06	0.000000e+00	1.800000e+00	3.300000e+00	
39	5.002041e-06	0.000000e+00	1.800000e+00	3.300000e+00	
40	5.002122e-06	0.000000e+00	1.800000e+00	3.300000e+00	
41	5.002284e-06	0.000000e+00	1.800000e+00	3.300000e+00	
42	5.002608e-06	0.000000e+00	1.800000e+00	3.300000e+00	
43	5.003257e-06	0.000000e+00	1.800000e+00	3.300000e+00	
44	5.004554e-06	0.000000e+00	1.800000e+00	3.300000e+00	
45	5.007149e-06	0.000000e+00	1.800000e+00	3.300000e+00	
46	5.012340e-06	0.000000e+00	1.800000e+00	3.300000e+00	
47	5.022720e-06	0.000000e+00	1.800000e+00	3.300000e+00	
48	5.043480e-06	0.000000e+00	1.800000e+00	3.300000e+00	
49	5.085000e-06	0.000000e+00	1.800000e+00	3.300000e+00	
50	5.168040e-06	0.000000e+00	1.800000e+00	3.300000e+00	
51	5.334121e-06	0.000000e+00	1.800000e+00	3.300000e+00	
52	5.666283e-06	0.000000e+00	1.800000e+00	3.300000e+00	
53	6.066283e-06	0.000000e+00	1.800000e+00	3.300000e+00	
54	6.466283e-06	0.000000e+00	1.800000e+00	3.300000e+00	

Index   time            /d0             /d1             /vdd            
--------------------------------------------------------------------------------
55	6.866283e-06	0.000000e+00	1.800000e+00	3.300000e+00	
56	7.266283e-06	0.000000e+00	1.800000e+00	3.300000e+00	
57	7.666283e-06	0.000000e+00	1.800000e+00	3.300000e+00	
58	8.066283e-06	0.000000e+00	1.800000e+00	3.300000e+00	
59	8.466283e-06	0.000000e+00	1.800000e+00	3.300000e+00	
60	8.866283e-06	0.000000e+00	1.800000e+00	3.300000e+00	
61	9.266283e-06	0.000000e+00	1.800000e+00	3.300000e+00	
62	9.666283e-06	0.000000e+00	1.800000e+00	3.300000e+00	
63	1.000000e-05	0.000000e+00	1.800000e+00	3.300000e+00	
64	1.000010e-05	1.800000e-01	1.800000e+00	3.300000e+00	
65	1.000030e-05	5.400000e-01	1.800000e+00	3.300000e+00	
66	1.000070e-05	1.260000e+00	1.800000e+00	3.300000e+00	
67	1.000100e-05	1.800000e+00	1.800000e+00	3.300000e+00	
68	1.000105e-05	1.800000e+00	1.711898e+00	3.300000e+00	
69	1.000115e-05	1.800000e+00	1.535694e+00	3.300000e+00	
70	1.000134e-05	1.800000e+00	1.183285e+00	3.300000e+00	
71	1.000169e-05	1.800000e+00	5.534006e-01	3.300000e+00	
72	1.000200e-05	1.800000e+00	0.000000e+00	3.300000e+00	
73	1.000204e-05	1.800000e+00	0.000000e+00	3.300000e+00	
74	1.000213e-05	1.800000e+00	0.000000e+00	3.300000e+00	
75	1.000231e-05	1.800000e+00	0.000000e+00	3.300000e+00	
76	1.000266e-05	1.800000e+00	0.000000e+00	3.300000e+00	
77	1.000337e-05	1.800000e+00	0.000000e+00	3.300000e+00	
78	1.000478e-05	1.800000e+00	0.000000e+00	3.300000e+00	
79	1.000761e-05	1.800000e+00	0.000000e+00	3.300000e+00	
80	1.001327e-05	1.800000e+00	0.000000e+00	3.300000e+00	
81	1.002457e-05	1.800000e+00	0.000000e+00	3.300000e+00	
82	1.004719e-05	1.800000e+00	0.000000e+00	3.300000e+00	
83	1.009243e-05	1.800000e+00	0.000000e+00	3.300000e+00	
84	1.018291e-05	1.800000e+00	0.000000e+00	3.300000e+00	
85	1.036386e-05	1.800000e+00	0.000000e+00	3.300000e+00	
86	1.072575e-05	1.800000e+00	0.000000e+00	3.300000e+00	
87	1.112575e-05	1.800000e+00	0.000000e+00	3.300000e+00	
88	1.152575e-05	1.800000e+00	0.000000e+00	3.300000e+00	
89	1.192575e-05	1.800000e+00	0.000000e+00	3.300000e+00	
90	1.232575e-05	1.800000e+00	0.000000e+00	3.300000e+00	
91	1.272575e-05	1.800000e+00	0.000000e+00	3.300000e+00	
92	1.312575e-05	1.800000e+00	0.000000e+00	3.300000e+00	
93	1.352575e-05	1.800000e+00	0.000000e+00	3.300000e+00	
94	1.392575e-05	1.800000e+00	0.000000e+00	3.300000e+00	
95	1.432575e-05	1.800000e+00	0.000000e+00	3.300000e+00	
96	1.472575e-05	1.800000e+00	0.000000e+00	3.300000e+00	
97	1.500100e-05	1.800000e+00	0.000000e+00	3.300000e+00	
98	1.500110e-05	1.620000e+00	0.000000e+00	3.300000e+00	
99	1.500130e-05	1.260000e+00	0.000000e+00	3.300000e+00	
100	1.500170e-05	5.400000e-01	0.000000e+00	3.300000e+00	
101	1.500200e-05	0.000000e+00	0.000000e+00	3.300000e+00	
102	1.500204e-05	0.000000e+00	0.000000e+00	3.300000e+00	
103	1.500212e-05	0.000000e+00	0.000000e+00	3.300000e+00	
104	1.500229e-05	0.000000e+00	0.000000e+00	3.300000e+00	
105	1.500261e-05	0.000000e+00	0.000000e+00	3.300000e+00	
106	1.500327e-05	0.000000e+00	0.000000e+00	3.300000e+00	
107	1.500457e-05	0.000000e+00	0.000000e+00	3.300000e+00	
108	1.500719e-05	0.000000e+00	0.000000e+00	3.300000e+00	
109	1.501241e-05	0.000000e+00	0.000000e+00	3.300000e+00	
110	1.502287e-05	0.000000e+00	0.000000e+00	3.300000e+00	
111	1.504377e-05	0.000000e+00	0.000000e+00	3.300000e+00	
112	1.508559e-05	0.000000e+00	0.000000e+00	3.300000e+00	

Index   time            /d0             /d1             /vdd            
--------------------------------------------------------------------------------
113	1.516922e-05	0.000000e+00	0.000000e+00	3.300000e+00	
114	1.533648e-05	0.000000e+00	0.000000e+00	3.300000e+00	
115	1.567101e-05	0.000000e+00	0.000000e+00	3.300000e+00	
116	1.607101e-05	0.000000e+00	0.000000e+00	3.300000e+00	
117	1.647101e-05	0.000000e+00	0.000000e+00	3.300000e+00	
118	1.687101e-05	0.000000e+00	0.000000e+00	3.300000e+00	
119	1.727101e-05	0.000000e+00	0.000000e+00	3.300000e+00	
120	1.767101e-05	0.000000e+00	0.000000e+00	3.300000e+00	
121	1.807101e-05	0.000000e+00	0.000000e+00	3.300000e+00	
122	1.847101e-05	0.000000e+00	0.000000e+00	3.300000e+00	
123	1.887101e-05	0.000000e+00	0.000000e+00	3.300000e+00	
124	1.927101e-05	0.000000e+00	0.000000e+00	3.300000e+00	
125	1.967101e-05	0.000000e+00	0.000000e+00	3.300000e+00	
126	2.000000e-05	0.000000e+00	0.000000e+00	3.300000e+00	

             * c:\users\91809\esim-workspace\2bit_dac\2bit_dac.cir
             Transient Analysis  Wed Feb 17 10:55:51  2021
--------------------------------------------------------------------------------
Index   time            /vout           m.xswitch1.xm1. m.xswitch1.xm1. 
--------------------------------------------------------------------------------
0	0.000000e+00	1.588881e-02	5.669335e-07	2.835486e-07	
1	1.000000e-11	1.621056e-02	3.137164e-06	1.585305e-06	
2	2.000000e-11	1.551256e-02	3.204141e-06	1.575728e-06	
3	4.000000e-11	1.374899e-02	3.299460e-06	1.562209e-06	
4	8.000000e-11	1.151288e-02	3.447295e-06	1.593786e-06	
5	1.600000e-10	1.096915e-02	3.402668e-06	1.555296e-06	
6	3.200000e-10	9.085339e-03	2.971643e-06	1.274250e-06	
7	6.400000e-10	1.182256e-03	1.713918e-06	-1.41551e-07	
8	1.000000e-09	2.241786e+00	-7.47360e-06	-4.86746e-06	
9	1.054931e-09	2.380050e+00	-4.21115e-06	-2.62254e-06	
10	1.164792e-09	2.484509e+00	6.242943e-07	3.738353e-07	
11	1.384516e-09	2.469114e+00	-1.84387e-07	-9.71652e-08	
12	1.707419e-09	2.478681e+00	2.068628e-08	-5.72964e-09	
13	2.135975e-09	2.471499e+00	5.892811e-08	5.579012e-08	
14	2.993088e-09	2.477626e+00	-8.85541e-08	-7.44094e-08	
15	4.707313e-09	2.471938e+00	1.013124e-07	8.243557e-08	
16	8.135764e-09	2.477433e+00	-1.07226e-07	-8.61480e-08	
17	1.499267e-08	2.472032e+00	1.100774e-07	8.794581e-08	
18	2.870647e-08	2.477389e+00	-1.11472e-07	-8.88173e-08	
19	5.613407e-08	2.472054e+00	1.121671e-07	8.925955e-08	
20	1.109893e-07	2.477378e+00	-1.12509e-07	-8.94690e-08	
21	2.206997e-07	2.472060e+00	1.126833e-07	8.958411e-08	
22	4.401206e-07	2.477375e+00	-1.12766e-07	-8.96310e-08	
23	8.401206e-07	2.472061e+00	1.128162e-07	8.966763e-08	
24	1.240121e-06	2.477374e+00	-1.12860e-07	-8.96901e-08	
25	1.640121e-06	2.472062e+00	1.129102e-07	8.972674e-08	
26	2.040121e-06	2.477373e+00	-1.12954e-07	-8.97492e-08	
27	2.440121e-06	2.472063e+00	1.130041e-07	8.978579e-08	
28	2.840121e-06	2.477372e+00	-1.13048e-07	-8.98082e-08	
29	3.240121e-06	2.472064e+00	1.130980e-07	8.984480e-08	
30	3.640121e-06	2.477371e+00	-1.13142e-07	-8.98672e-08	
31	4.040121e-06	2.472065e+00	1.131918e-07	8.990375e-08	
32	4.440121e-06	2.477370e+00	-1.13236e-07	-8.99261e-08	
33	4.840121e-06	2.472066e+00	1.132854e-07	8.996265e-08	
34	5.001000e-06	2.477473e+00	-1.13399e-07	-9.00290e-08	
35	5.001100e-06	2.476510e+00	1.156409e-06	7.336866e-07	
36	5.001300e-06	2.480100e+00	3.388408e-06	2.143755e-06	
37	5.001700e-06	1.769487e+00	-2.55774e-06	5.095575e-07	
38	5.002000e-06	1.544976e+00	-7.22083e-07	-1.06970e-06	
39	5.002041e-06	1.573542e+00	5.374281e-07	8.842193e-08	
40	5.002122e-06	1.593368e+00	5.642839e-07	2.917370e-07	
41	5.002284e-06	1.591994e+00	5.717460e-07	2.899232e-07	
42	5.002608e-06	1.593544e+00	5.618487e-07	2.740748e-07	
43	5.003257e-06	1.591927e+00	5.720485e-07	2.939833e-07	
44	5.004554e-06	1.593569e+00	5.618265e-07	2.727482e-07	
45	5.007149e-06	1.591917e+00	5.720338e-07	2.945078e-07	
46	5.012340e-06	1.593573e+00	5.618391e-07	2.725166e-07	
47	5.022720e-06	1.591915e+00	5.720261e-07	2.946163e-07	
48	5.043480e-06	1.593574e+00	5.618432e-07	2.724641e-07	
49	5.085000e-06	1.591914e+00	5.720240e-07	2.946421e-07	
50	5.168040e-06	1.593574e+00	5.618443e-07	2.724513e-07	
51	5.334121e-06	1.591914e+00	5.720234e-07	2.946485e-07	
52	5.666283e-06	1.593574e+00	5.618446e-07	2.724482e-07	
53	6.066283e-06	1.591914e+00	5.720232e-07	2.946504e-07	
54	6.466283e-06	1.593574e+00	5.618447e-07	2.724464e-07	

Index   time            /vout           m.xswitch1.xm1. m.xswitch1.xm1. 
--------------------------------------------------------------------------------
55	6.866283e-06	1.591914e+00	5.720231e-07	2.946522e-07	
56	7.266283e-06	1.593574e+00	5.618449e-07	2.724447e-07	
57	7.666283e-06	1.591914e+00	5.720229e-07	2.946539e-07	
58	8.066283e-06	1.593574e+00	5.618450e-07	2.724429e-07	
59	8.466283e-06	1.591914e+00	5.720228e-07	2.946557e-07	
60	8.866283e-06	1.593574e+00	5.618452e-07	2.724412e-07	
61	9.266283e-06	1.591914e+00	5.720226e-07	2.946574e-07	
62	9.666283e-06	1.593574e+00	5.618453e-07	2.724394e-07	
63	1.000000e-05	1.591914e+00	5.720224e-07	2.946593e-07	
64	1.000010e-05	1.590576e+00	3.515809e-06	1.662564e-06	
65	1.000030e-05	1.585534e+00	2.956890e-06	1.264926e-06	
66	1.000070e-05	1.376109e+00	1.596784e-06	-5.73222e-07	
67	1.000100e-05	2.224959e+00	-1.00720e-05	-5.56397e-06	
68	1.000105e-05	2.362305e+00	-2.30814e-06	-1.44145e-06	
69	1.000115e-05	2.490329e+00	-2.96781e-07	-1.92325e-07	
70	1.000134e-05	2.490748e+00	4.158912e-07	2.672463e-07	
71	1.000169e-05	9.012767e-01	-4.32721e-07	-2.77798e-07	
72	1.000200e-05	7.801684e-01	4.210388e-07	2.704587e-07	
73	1.000204e-05	8.001391e-01	6.663962e-08	4.189822e-08	
74	1.000213e-05	8.057339e-01	-7.49246e-08	-4.71016e-08	
75	1.000231e-05	8.074256e-01	6.764398e-08	4.252981e-08	
76	1.000266e-05	8.058471e-01	-6.48695e-08	-4.07803e-08	
77	1.000337e-05	8.072144e-01	6.367599e-08	4.003530e-08	
78	1.000478e-05	8.059672e-01	-6.31167e-08	-3.96784e-08	
79	1.000761e-05	8.071525e-01	6.285104e-08	3.951670e-08	
80	1.001327e-05	8.059985e-01	-6.27163e-08	-3.94267e-08	
81	1.002457e-05	8.071368e-01	6.265377e-08	3.939268e-08	
82	1.004719e-05	8.060064e-01	-6.26184e-08	-3.93652e-08	
83	1.009243e-05	8.071328e-01	6.260499e-08	3.936202e-08	
84	1.018291e-05	8.060083e-01	-6.25941e-08	-3.93499e-08	
85	1.036386e-05	8.071319e-01	6.259283e-08	3.935437e-08	
86	1.072575e-05	8.060088e-01	-6.25880e-08	-3.93460e-08	
87	1.112575e-05	8.071316e-01	6.258897e-08	3.935195e-08	
88	1.152575e-05	8.060091e-01	-6.25843e-08	-3.93437e-08	
89	1.192575e-05	8.071313e-01	6.258531e-08	3.934964e-08	
90	1.232575e-05	8.060094e-01	-6.25807e-08	-3.93414e-08	
91	1.272575e-05	8.071310e-01	6.258165e-08	3.934734e-08	
92	1.312575e-05	8.060097e-01	-6.25770e-08	-3.93391e-08	
93	1.352575e-05	8.071307e-01	6.257798e-08	3.934504e-08	
94	1.392575e-05	8.060100e-01	-6.25733e-08	-3.93368e-08	
95	1.432575e-05	8.071304e-01	6.257432e-08	3.934274e-08	
96	1.472575e-05	8.060103e-01	-6.25697e-08	-3.93345e-08	
97	1.500100e-05	8.071300e-01	6.256984e-08	3.933992e-08	
98	1.500110e-05	8.004317e-01	1.127532e-06	7.154955e-07	
99	1.500130e-05	7.628840e-01	3.392984e-06	2.146708e-06	
100	1.500170e-05	5.754071e-02	-2.56058e-06	5.060677e-07	
101	1.500200e-05	-2.53480e-04	-7.12613e-07	-1.05769e-06	
102	1.500204e-05	1.211770e-02	5.343083e-07	7.949882e-08	
103	1.500212e-05	1.662051e-02	5.647853e-07	2.956880e-07	
104	1.500229e-05	1.538930e-02	5.719805e-07	2.889808e-07	
105	1.500261e-05	1.636475e-02	5.613787e-07	2.740577e-07	
106	1.500327e-05	1.544400e-02	5.726180e-07	2.943924e-07	
107	1.500457e-05	1.634493e-02	5.612144e-07	2.721632e-07	
108	1.500719e-05	1.545137e-02	5.726681e-07	2.951775e-07	
109	1.501241e-05	1.634119e-02	5.611957e-07	2.718066e-07	
110	1.502287e-05	1.545295e-02	5.726756e-07	2.953471e-07	
111	1.504377e-05	1.634031e-02	5.611923e-07	2.717238e-07	
112	1.508559e-05	1.545333e-02	5.726771e-07	2.953879e-07	

Index   time            /vout           m.xswitch1.xm1. m.xswitch1.xm1. 
--------------------------------------------------------------------------------
113	1.516922e-05	1.634010e-02	5.611915e-07	2.717035e-07	
114	1.533648e-05	1.545342e-02	5.726775e-07	2.953980e-07	
115	1.567101e-05	1.634005e-02	5.611913e-07	2.716985e-07	
116	1.607101e-05	1.545355e-02	5.726776e-07	2.954011e-07	
117	1.647101e-05	1.634015e-02	5.611912e-07	2.716956e-07	
118	1.687101e-05	1.545359e-02	5.726777e-07	2.954039e-07	
119	1.727101e-05	1.634012e-02	5.611911e-07	2.716928e-07	
120	1.767101e-05	1.545362e-02	5.726778e-07	2.954068e-07	
121	1.807101e-05	1.634009e-02	5.611910e-07	2.716900e-07	
122	1.847101e-05	1.545364e-02	5.726779e-07	2.954096e-07	
123	1.887101e-05	1.634006e-02	5.611909e-07	2.716872e-07	
124	1.927101e-05	1.545367e-02	5.726780e-07	2.954124e-07	
125	1.967101e-05	1.634003e-02	5.611908e-07	2.716844e-07	
126	2.000000e-05	1.545370e-02	5.726782e-07	2.954155e-07	

             * c:\users\91809\esim-workspace\2bit_dac\2bit_dac.cir
             Transient Analysis  Wed Feb 17 10:55:51  2021
--------------------------------------------------------------------------------
Index   time            m.xswitch1.xm1. m.xswitch1.xm2. m.xswitch1.xm2. 
--------------------------------------------------------------------------------
0	0.000000e+00	2.834668e-07	3.300000e+00	3.300000e+00	
1	1.000000e-11	1.568651e-06	3.300001e+00	3.300001e+00	
2	2.000000e-11	1.602072e-06	3.299998e+00	3.299999e+00	
3	4.000000e-11	1.649731e-06	3.299994e+00	3.299995e+00	
4	8.000000e-11	1.723649e-06	3.299991e+00	3.299993e+00	
5	1.600000e-10	1.701332e-06	3.299990e+00	3.299992e+00	
6	3.200000e-10	1.485822e-06	3.299987e+00	3.299989e+00	
7	6.400000e-10	8.569569e-07	3.299991e+00	3.299979e+00	
8	1.000000e-09	-3.73679e-06	3.300013e+00	3.300001e+00	
9	1.054931e-09	-2.10559e-06	3.299998e+00	3.299996e+00	
10	1.164792e-09	3.121415e-07	3.300000e+00	3.300001e+00	
11	1.384516e-09	-9.21946e-08	3.300000e+00	3.300000e+00	
12	1.707419e-09	1.034384e-08	3.300000e+00	3.300000e+00	
13	2.135975e-09	2.946340e-08	3.300000e+00	3.300000e+00	
14	2.993088e-09	-4.42764e-08	3.300000e+00	3.300000e+00	
15	4.707313e-09	5.065557e-08	3.300000e+00	3.300000e+00	
16	8.135764e-09	-5.36124e-08	3.300000e+00	3.300000e+00	
17	1.499267e-08	5.503804e-08	3.300000e+00	3.300000e+00	
18	2.870647e-08	-5.57354e-08	3.300000e+00	3.300000e+00	
19	5.613407e-08	5.608289e-08	3.300000e+00	3.300000e+00	
20	1.109893e-07	-5.62537e-08	3.300000e+00	3.300000e+00	
21	2.206997e-07	5.634102e-08	3.300000e+00	3.300000e+00	
22	4.401206e-07	-5.63825e-08	3.300000e+00	3.300000e+00	
23	8.401206e-07	5.640744e-08	3.300000e+00	3.300000e+00	
24	1.240121e-06	-5.64295e-08	3.300000e+00	3.300000e+00	
25	1.640121e-06	5.645445e-08	3.300000e+00	3.300000e+00	
26	2.040121e-06	-5.64765e-08	3.300000e+00	3.300000e+00	
27	2.440121e-06	5.650142e-08	3.300000e+00	3.300000e+00	
28	2.840121e-06	-5.65235e-08	3.300000e+00	3.300000e+00	
29	3.240121e-06	5.654835e-08	3.300000e+00	3.300000e+00	
30	3.640121e-06	-5.65704e-08	3.300000e+00	3.300000e+00	
31	4.040121e-06	5.659524e-08	3.300000e+00	3.300000e+00	
32	4.440121e-06	-5.66173e-08	3.300000e+00	3.300000e+00	
33	4.840121e-06	5.664208e-08	3.300000e+00	3.300000e+00	
34	5.001000e-06	-5.66991e-08	3.300000e+00	3.300000e+00	
35	5.001100e-06	5.782076e-07	3.299994e+00	3.299998e+00	
36	5.001300e-06	1.694207e-06	3.299995e+00	3.300000e+00	
37	5.001700e-06	-1.27888e-06	3.300007e+00	3.300026e+00	
38	5.002000e-06	-3.61038e-07	3.300046e+00	3.300021e+00	
39	5.002041e-06	2.687141e-07	3.300001e+00	3.299999e+00	
40	5.002122e-06	2.821420e-07	3.299988e+00	3.299992e+00	
41	5.002284e-06	2.858729e-07	3.300013e+00	3.300009e+00	
42	5.002608e-06	2.809244e-07	3.299987e+00	3.299991e+00	
43	5.003257e-06	2.860242e-07	3.300013e+00	3.300009e+00	
44	5.004554e-06	2.809133e-07	3.299987e+00	3.299991e+00	
45	5.007149e-06	2.860169e-07	3.300013e+00	3.300009e+00	
46	5.012340e-06	2.809196e-07	3.299987e+00	3.299991e+00	
47	5.022720e-06	2.860130e-07	3.300013e+00	3.300009e+00	
48	5.043480e-06	2.809216e-07	3.299987e+00	3.299991e+00	
49	5.085000e-06	2.860119e-07	3.300013e+00	3.300009e+00	
50	5.168040e-06	2.809222e-07	3.299987e+00	3.299991e+00	
51	5.334121e-06	2.860117e-07	3.300013e+00	3.300009e+00	
52	5.666283e-06	2.809223e-07	3.299987e+00	3.299991e+00	
53	6.066283e-06	2.860116e-07	3.300013e+00	3.300009e+00	
54	6.466283e-06	2.809224e-07	3.299987e+00	3.299991e+00	

Index   time            m.xswitch1.xm1. m.xswitch1.xm2. m.xswitch1.xm2. 
--------------------------------------------------------------------------------
55	6.866283e-06	2.860115e-07	3.300013e+00	3.300009e+00	
56	7.266283e-06	2.809225e-07	3.299987e+00	3.299991e+00	
57	7.666283e-06	2.860114e-07	3.300013e+00	3.300009e+00	
58	8.066283e-06	2.809225e-07	3.299987e+00	3.299991e+00	
59	8.466283e-06	2.860114e-07	3.300013e+00	3.300009e+00	
60	8.866283e-06	2.809226e-07	3.299987e+00	3.299991e+00	
61	9.266283e-06	2.860113e-07	3.300013e+00	3.300009e+00	
62	9.666283e-06	2.809227e-07	3.299987e+00	3.299991e+00	
63	1.000000e-05	2.860112e-07	3.300013e+00	3.300009e+00	
64	1.000010e-05	1.757912e-06	3.299993e+00	3.299995e+00	
65	1.000030e-05	1.478435e-06	3.299987e+00	3.299989e+00	
66	1.000070e-05	7.983994e-07	3.299993e+00	3.299976e+00	
67	1.000100e-05	-5.03601e-06	3.300013e+00	3.300010e+00	
68	1.000105e-05	-1.15410e-06	3.299999e+00	3.299998e+00	
